<Qucs Dataset 0.0.19>
<indep frequency 200>
  +1.00000000000000000000e+08
  +1.01516781217791974545e+08
  +1.03056568688210397959e+08
  +1.04619711365774080157e+08
  +1.06206563497878313065e+08
  +1.07817484705076441169e+08
  +1.09452840062578752637e+08
  +1.11113000182987838984e+08
  +1.12798341300288587809e+08
  +1.14509245355112239718e+08
  +1.16246100081293895841e+08
  +1.18009299093742653728e+08
  +1.19799241977644488215e+08
  +1.21616334379018560052e+08
  +1.23460988096646577120e+08
  +1.25333621175396904349e+08
  +1.27234658000963866711e+08
  +1.29164529396044343710e+08
  +1.31123672717972934246e+08
  +1.33112531957838162780e+08
  +1.35131557841102004051e+08
  +1.37181207929745525122e+08
  +1.39261946725964069366e+08
  +1.41374245777434945107e+08
  +1.43518583784182161093e+08
  +1.45695446707061678171e+08
  +1.47905327877892494202e+08
  +1.50148728111258000135e+08
  +1.52426155818003088236e+08
  +1.54738127120452880859e+08
  +1.57085165969379007816e+08
  +1.59467804262739896774e+08
  +1.61886581966222405434e+08
  +1.64342047235611468554e+08
  +1.66834756541016042233e+08
  +1.69365274792979151011e+08
  +1.71934175470500826836e+08
  +1.74542040751002848148e+08
  +1.77189461642264902592e+08
  +1.79877038116361469030e+08
  +1.82605379245630949736e+08
  +1.85375103340706497431e+08
  +1.88186838090640783310e+08
  +1.91041220705156236887e+08
  +1.93938898059052526951e+08
  +1.96880526838804990053e+08
  +1.99866773691385865211e+08
  +2.02898315375343590975e+08
  +2.05975838914173126221e+08
  +2.09100041752012759447e+08
  +2.12271631911702483892e+08
  +2.15491328155239671469e+08
  +2.18759860146668851376e+08
  +2.22077968617441475391e+08
  +2.25446405534284800291e+08
  +2.28865934269615948200e+08
  +2.32337329774541586637e+08
  +2.35861378754481256008e+08
  +2.39438879847454398870e+08
  +2.43070643805072128773e+08
  +2.46757493676273435354e+08
  +2.50500264993849426508e+08
  +2.54299805963795214891e+08
  +2.58156977657535523176e+08
  +2.62072654207064419985e+08
  +2.66047723003046065569e+08
  +2.70083084895919501781e+08
  +2.74179654400053977966e+08
  +2.78338359901000916958e+08
  +2.82560143865889549255e+08
  +2.86845963057013332844e+08
  +2.91196788748656690121e+08
  +2.95613606947209656239e+08
  +3.00097418614622294903e+08
  +3.04649239895247459412e+08
  +3.09270102346124529839e+08
  +3.13961053170756638050e+08
  +3.18723155456432521343e+08
  +3.23557488415149569511e+08
  +3.28465147628189980984e+08
  +3.33447245294407129288e+08
  +3.38504910482277393341e+08
  +3.43639289385776102543e+08
  +3.48851545584133386612e+08
  +3.54142860305530488491e+08
  +3.59514432694796085358e+08
  +3.64967480085162103176e+08
  +3.70503238274142503738e+08
  +3.76122961803595721722e+08
  +3.81827924244035542011e+08
  +3.87619418483254134655e+08
  +3.93498757019322574139e+08
  +3.99467272258036494255e+08
  +4.05526316814872324467e+08
  +4.11677263821523904800e+08
  +4.17921507237088739872e+08
  +4.24260462163973987103e+08
  +4.30695565168594539165e+08
  +4.37228274606934785843e+08
  +4.43860070955048680305e+08
  +4.50592457144573032856e+08
  +4.57426958903329253197e+08
  +4.64365125101091861725e+08
  +4.71408528100601553917e+08
  +4.78558764113901078701e+08
  +4.85817453564078032970e+08
  +4.93186241452493250370e+08
  +5.00666797731578826904e+08
  +5.08260817683292031288e+08
  +5.15970022303308069706e+08
  +5.23796158691041648388e+08
  +5.31741000445583164692e+08
  +5.39806348067640900612e+08
  +5.47994029367579817772e+08
  +5.56305899879648566246e+08
  +5.64743843282491683960e+08
  +5.73309771826037049294e+08
  +5.82005626764860510826e+08
  +5.90833378798122406006e+08
  +5.99795028516178011894e+08
  +6.08892606853961348534e+08
  +6.18128175551246166229e+08
  +6.27503827619887709618e+08
  +6.37021687818151950836e+08
  +6.46683913132239103317e+08
  +6.56492693265110969543e+08
  +6.66450251132732987404e+08
  +6.76558843367841720581e+08
  +6.86820760831355690956e+08
  +6.97238329131541609764e+08
  +7.07813909151055455208e+08
  +7.18549897581977844238e+08
  +7.29448727468964695930e+08
  +7.40512868760636568069e+08
  +7.51744828869330525398e+08
  +7.63147153239342689514e+08
  +7.74722425923791408539e+08
  +7.86473270170225501060e+08
  +7.98402349015121936798e+08
  +8.10512365887393355370e+08
  +8.22806065221054673195e+08
  +8.35286233077180862427e+08
  +8.47955697775297760963e+08
  +8.60817330534350037575e+08
  +8.73874046123393654823e+08
  +8.87128803522151827812e+08
  +9.00584606591598510742e+08
  +9.14244504754705786705e+08
  +9.28111593687520146370e+08
  +9.42189016020722508430e+08
  +9.56479962051823496819e+08
  +9.70987670468169569969e+08
  +9.85715429080906748772e+08
  +1.00066657557008314133e+09
  +1.01584449824105250835e+09
  +1.03125263679234576225e+09
  +1.04689448309519660473e+09
  +1.06277358198488509655e+09
  +1.07889353206408643723e+09
  +1.09525798651840710640e+09
  +1.11187065394428515434e+09
  +1.12873529918945264816e+09
  +1.14585574420614647865e+09
  +1.16323586891725540161e+09
  +1.18087961209561181068e+09
  +1.19879097225661301613e+09
  +1.21697400856438684464e+09
  +1.23543284175170183182e+09
  +1.25417165505382490158e+09
  +1.27319469515655231476e+09
  +1.29250627315861082077e+09
  +1.31211076554866313934e+09
  +1.33201261519713211060e+09
  +1.35221633236306142807e+09
  +1.37272649571626019478e+09
  +1.39354775337493872643e+09
  +1.41468482395909118652e+09
  +1.43614249765985655785e+09
  +1.45792563732508945465e+09
  +1.48003917956141066551e+09
  +1.50248813585296058655e+09
  +1.52527759369713068008e+09
  +1.54841271775751852989e+09
  +1.57189875103436708450e+09
  +1.59574101605276250839e+09
  +1.61994491606885385513e+09
  +1.64451593629436159134e+09
  +1.66945964513967084885e+09
  +1.69478169547576618195e+09
  +1.72048782591531872749e+09
  +1.74658386211319971085e+09
  +1.77307571808671784401e+09
  +1.79996939755588793755e+09
  +1.82727099530401921272e+09
  +1.85498669855895066261e+09
  +1.88312278839523267746e+09
  +1.91168564115757131577e+09
  +1.94068172990587592125e+09
  +1.97011762588220882416e+09
  +1.99999999999999904633e+09
</indep>
<dep dBS11 frequency>
  -7.50530859895254920389e-01
  -7.57633526815071345339e-01
  -7.64719741104719630265e-01
  -7.71791248521685901984e-01
  -7.78849974089827812307e-01
  -7.85898024637240344425e-01
  -7.92937691474063233166e-01
  -7.99971453240932106610e-01
  -8.07001978959893562227e-01
  -8.14032131321229313059e-01
  -8.21064970240869995699e-01
  -8.28103756724761552732e-01
  -8.35151957078220430475e-01
  -8.42213247500165129722e-01
  -8.49291519104079517533e-01
  -8.56390883409743342014e-01
  -8.63515678352307025634e-01
  -8.70670474857860643425e-01
  -8.77860084037575649774e-01
  -8.85089565056046856384e-01
  -8.92364233732756195749e-01
  -8.99689671939996271632e-01
  -9.07071737864875382584e-01
  -9.14516577208312919645e-01
  -9.22030635399328835078e-01
  -9.29620670909384716474e-01
  -9.37293769758373640499e-01
  -9.45057361311895660627e-01
  -9.52919235477832859971e-01
  -9.60887561420083913255e-01
  -9.68970907918393020708e-01
  -9.77178265514666355429e-01
  -9.85519070600292312889e-01
  -9.94003231613789006715e-01
  -1.00264115753474269965e+00
  -1.01144378887933328315e+00
  -1.02042263142336997461e+00
  -1.02958979290273022755e+00
  -1.03895802296756945005e+00
  -1.04854075669615820487e+00
  -1.05835216200830473099e+00
  -1.06840719135515982430e+00
  -1.07872163810534793527e+00
  -1.08931219809480550609e+00
  -1.10019653686158580541e+00
  -1.11139336314849801468e+00
  -1.12292250932489112714e+00
  -1.13480501945776945938e+00
  -1.14706324585119778803e+00
  -1.15972095497413851817e+00
  -1.17280344381227163986e+00
  -1.18633766781066030127e+00
  -1.20035238172459646222e+00
  -1.21487829486776122145e+00
  -1.22994824244436951055e+00
  -1.24559737487832489222e+00
  -1.26186336731362791497e+00
  -1.27878665176068273546e+00
  -1.29641067471127868771e+00
  -1.31478218344715358512e+00
  -1.33395154473445742838e+00
  -1.35397310013921945426e+00
  -1.37490556283235254575e+00
  -1.39681246149175164462e+00
  -1.41976263777480715689e+00
  -1.44383080485111614522e+00
  -1.46909817568017220246e+00
  -1.49565317112957596457e+00
  -1.52359221969743474645e+00
  -1.55302066258117310582e+00
  -1.58405378018850018229e+00
  -1.61681795899416358431e+00
  -1.65145202100545840374e+00
  -1.68810874213336736815e+00
  -1.72695659062314343934e+00
  -1.76818172256973960010e+00
  -1.81199027866381645602e+00
  -1.85861103498403035239e+00
  -1.90829847124848894779e+00
  -1.96133633294414777559e+00
  -2.01804177978802812277e+00
  -2.07877023283191730840e+00
  -2.14392105723866599476e+00
  -2.21394424868315020660e+00
  -2.28934833024270512070e+00
  -2.37070971590271106777e+00
  -2.45868385957738988523e+00
  -2.55401858911789192419e+00
  -2.65757012901272471339e+00
  -2.77032245149947087270e+00
  -2.89341077500621723928e+00
  -3.02815026746358739729e+00
  -3.17607133358910243004e+00
  -3.33896330437543520375e+00
  -3.51892895572562425244e+00
  -3.71845314119518333129e+00
  -3.94049005613048919372e+00
  -4.18857545792243524119e+00
  -4.46697288071733300541e+00
  -4.78086706440052378042e+00
  -5.13662444970993448123e+00
  -5.54215145292041988512e+00
  -6.00739966965876881488e+00
  -6.54509973396301880655e+00
  -7.17186581872959649786e+00
  -7.90993031493687137612e+00
  -8.79001246446822293024e+00
  -9.85637273267554547829e+00
  -1.11764591977390992383e+01
  -1.28613513636821767960e+01
  -1.51158914675275983797e+01
  -1.83923885437633742868e+01
  -2.41007970283506907094e+01
  -4.95395804285818996959e+01
  -2.43797380984019618211e+01
  -1.81490603052476764390e+01
  -1.45404798871880629463e+01
  -1.20145531522849680073e+01
  -1.00957083967546807912e+01
  -8.57263654030527355587e+00
  -7.33176797575990502054e+00
  -6.30402629054486762783e+00
  -5.44348068204840096485e+00
  -4.71747778879413015574e+00
  -4.10160733512651631827e+00
  -3.57693438582899192468e+00
  -3.12837865862044228749e+00
  -2.74370818496364199390e+00
  -2.41287764537542637200e+00
  -2.12756875489225771858e+00
  -1.88085476961789210826e+00
  -1.66694530371295557281e+00
  -1.48098604829817093176e+00
  -1.31889806794840525050e+00
  -1.17724696328541833523e+00
  -1.05313538080045310252e+00
  -9.44114229194046084004e-01
  -8.48109121827762102441e-01
  -7.63359327715034119421e-01
  -6.88367049772407257890e-01
  -6.21855249716117053360e-01
  -5.62732552637474459090e-01
  -5.10064017535143521265e-01
  -4.63046768222342253196e-01
  -4.20989651576509305020e-01
  -3.83296233575322942144e-01
  -3.49450562855686541752e-01
  -3.19005230563758679363e-01
  -2.91571337305515210225e-01
  -2.66810045833856701591e-01
  -2.44425454080698878467e-01
  -2.24158569271280472268e-01
  -2.05782201835462003059e-01
  -1.89096629083217310230e-01
  -1.73925904325846508724e-01
  -1.60114708287687201871e-01
  -1.47525657079827177132e-01
  -1.36036995370646729420e-01
  -1.25540615237124453252e-01
  -1.15940350970311648049e-01
  -1.07150508205957908925e-01
  -9.90945924612639389428e-02
  -9.17042077272367528451e-02
  -8.49181003963299929627e-02
  -7.86813276611804252036e-02
  -7.29445327388779374278e-02
  -6.76633119660235288206e-02
  -6.27976610642882460134e-02
  -5.83114897684819943890e-02
  -5.41721956010971089635e-02
  -5.03502889186546592759e-02
  -4.68190624880383127193e-02
  -4.35542998095162364747e-02
  -4.05340172159582429190e-02
  -3.77382354678577336404e-02
  -3.51487771515762228991e-02
  -3.27490866889119727756e-02
  -3.05240701946509936093e-02
  -2.84599527844834852830e-02
  -2.65441512506036023100e-02
  -2.47651602915096719082e-02
  -2.31124507154003254461e-02
  -2.15763782364245676471e-02
  -2.01481016561979274504e-02
  -1.88195093725370687920e-02
  -1.75831532870345808028e-02
  -1.64321892955730311514e-02
  -1.53603236437457740804e-02
  -1.43617645143145240827e-02
  -1.34311782880216969843e-02
  -1.25636499840986563814e-02
  -1.17546474433778309898e-02
  -1.09999888667704076584e-02
  -1.02958133653177942579e-02
  -9.63855421644055354591e-03
  -9.02491455468418940500e-03
  -8.45184525480305141876e-03
  -7.91652479144303554415e-03
  -7.41634088250316993174e-03
  -6.94887374399937550462e-03
</dep>
<dep S[1,1] frequency>
  -5.15199324183979623371e-01-j7.58855688750595724912e-01
  -5.25589741124048992482e-01-j7.50781564392835720767e-01
  -5.35800175121934563194e-01-j7.42607811972857412286e-01
  -5.45829888400269802595e-01-j7.34338918451344913052e-01
  -5.55678300124697099882e-01-j7.25979300460630305736e-01
  -5.65344980638912253390e-01-j7.17533297924792590194e-01
  -5.74829645489666196667e-01-j7.09005168028443821804e-01
  -5.84132149264510847075e-01-j7.00399079533335244818e-01
  -5.93252479264179122254e-01-j6.91719107440262104269e-01
  -6.02190749030482974646e-01-j6.82969227992130889504e-01
  -6.10947191749526608007e-01-j6.74153314012597482119e-01
  -6.19522153548829113134e-01-j6.65275130573299566805e-01
  -6.27916086705695208892e-01-j6.56338330981436679501e-01
  -6.36129542782832846370e-01-j6.47346453078284866933e-01
  -6.44163165705804563466e-01-j6.38302915838189099951e-01
  -6.52017684795465735093e-01-j6.29211016256612243325e-01
  -6.59693907767008203002e-01-j6.20073926514971507373e-01
  -6.67192713705695772397e-01-j6.10894691409246126668e-01
  -6.74515046027793108152e-01-j6.01676226028682537006e-01
  -6.81661905433532444576e-01-j5.92421313670358218317e-01
  -6.88634342857342818256e-01-j5.83132603974899299537e-01
  -6.95433452418840580833e-01-j5.73812611268248895513e-01
  -7.02060364376376533357e-01-j5.64463713094081387389e-01
  -7.08516238083154559213e-01-j5.55088148921217827692e-01
  -7.14802254944165604833e-01-j5.45688019010240110696e-01
  -7.20919611370325341682e-01-j5.36265283423408178898e-01
  -7.26869511724341110792e-01-j5.26821761161951784835e-01
  -7.32653161250877649202e-01-j5.17359129414835638983e-01
  -7.38271758981631776031e-01-j5.07878922903190699323e-01
  -7.43726490603845213911e-01-j4.98382533304751018655e-01
  -7.49018521278630000637e-01-j4.88871208742807983327e-01
  -7.54148988393286479059e-01-j4.79346053324486320868e-01
  -7.59118994229403432072e-01-j4.69808026713406601260e-01
  -7.63929598526066122588e-01-j4.60257943722182871760e-01
  -7.68581810914900298570e-01-j4.50696473910621508985e-01
  -7.73076583200841049859e-01-j4.41124141175946171689e-01
  -7.77414801459560433905e-01-j4.31541323321953385062e-01
  -7.81597277919250488232e-01-j4.21948251594599810232e-01
  -7.85624742590973035306e-01-j4.12345010172259440751e-01
  -7.89497834608049120497e-01-j4.02731535599710643858e-01
  -7.93217093230789038749e-01-j3.93107616155829397986e-01
  -7.96782948468437002276e-01-j3.83472891146099670312e-01
  -8.00195711265214715269e-01-j3.73826850112263187054e-01
  -8.03455563191946997570e-01-j3.64168831952931371099e-01
  -8.06562545578784817479e-01-j3.54498023950683638361e-01
  -8.09516548017858217356e-01-j3.44813460703177754318e-01
  -8.12317296157426427250e-01-j3.35114022958171386968e-01
  -8.14964338700882917621e-01-j3.25398436355136433384e-01
  -8.17457033514936037832e-01-j3.15665270079443782691e-01
  -8.19794532741180081992e-01-j3.05912935439016320238e-01
  -8.21975766793998641191e-01-j2.96139684377981882157e-01
  -8.23999427115172156100e-01-j2.86343607947406098013e-01
  -8.25863947541488951920e-01-j2.76522634759761909429e-01
  -8.27567484125945496132e-01-j2.66674529461671361297e-01
  -8.29107893235498938367e-01-j2.56796891268835814071e-01
  -8.30482707728643521072e-01-j2.46887152618322697206e-01
  -8.31689110993975466712e-01-j2.36942578006792164969e-01
  -8.32723908606214480166e-01-j2.26960263099360737282e-01
  -8.33583497328399092297e-01-j2.16937134213066318278e-01
  -8.34263831157985302767e-01-j2.06869948302023404230e-01
  -8.34760384079817563396e-01-j1.96755293599097824675e-01
  -8.35068109150141624220e-01-j1.86589591102229057640e-01
  -8.35181393492392842859e-01-j1.76369097133562108271e-01
  -8.35094008737146897836e-01-j1.66089907247632784237e-01
  -8.34799056384735949088e-01-j1.55747961822766567419e-01
  -8.34288907509189270328e-01-j1.45339053739510726260e-01
  -8.33555136156012510540e-01-j1.34858838633911903848e-01
  -8.32588445713340341570e-01-j1.24302848314665731477e-01
  -8.31378587456044315651e-01-j1.13666508055323772775e-01
  -8.29914270375360696441e-01-j1.02945158620208546130e-01
  -8.28183061312716461977e-01-j9.21340840608513567123e-02
  -8.26171274316357506784e-01-j8.12285465351484242680e-02
  -8.23863848034470103165e-01-j7.02238296619147883693e-02
  -8.21244209850811035523e-01-j5.91152922387167614748e-02
  -8.18294125362143631719e-01-j4.78984345323642396464e-02
  -8.14993531696065032222e-01-j3.65689798132734986136e-02
  -8.11320353081181666610e-01-j2.51229743639235364450e-02
  -8.07250297020109530699e-01-j1.35569098681218580538e-02
  -8.02756629395584897502e-01-j1.86787290583360909846e-03
  -7.97809926883641606921e-01+j9.94627273340427386916e-03
  -7.92377805186470385301e-01+j2.18866640134705026099e-02
  -7.86424621874783902342e-01+j3.39531685514720404928e-02
  -7.79911153104436039030e-01+j4.61440563935354985947e-02
  -7.72794244225713078400e-01+j5.84556015489064439983e-02
  -7.65026435445906205501e-01+j7.08815987203737785105e-02
  -7.56555565384288697395e-01+j8.34127777854506979871e-02
  -7.47324357771496972092e-01+j9.60360952143993196195e-02
  -7.37269999955707078243e-01+j1.08733877729024375203e-01
  -7.26323726632745247933e-01+j1.21482789114285255616e-01
  -7.14410428768950334089e-01+j1.34252586257164574501e-01
  -7.01448316616338329865e-01+j1.47004625368029884225e-01
  -6.87348677766511761966e-01+j1.59690074265718073843e-01
  -6.72015787262813080183e-01+j1.72247782158279905129e-01
  -6.55347047977692831466e-01+j1.84601755491335506321e-01
  -6.37233466999573283651e-01+j1.96658188698660807425e-01
  -6.17560608951037259828e-01+j2.08302004428631476474e-01
  -5.96210211113806343164e-01+j2.19392872533742677721e-01
  -5.73062698549851368135e-01+j2.29760705835283296494e-01
  -5.48000899412454778314e-01+j2.39200680407836041574e-01
  -5.20915328260856957954e-01+j2.47467908169269723562e-01
  -4.91711471166555613710e-01+j2.54272011557506838475e-01
  -4.60319556723045864022e-01+j2.59272027333399046611e-01
  -4.26707307641891409045e-01+j2.62072311922781464588e-01
  -3.90896100465155493797e-01+j2.62220441983857022183e-01
  -3.52980761186826086373e-01+j2.59208495297073904240e-01
  -3.13152820826981315161e-01+j2.52479525697250573035e-01
  -2.71726367558159487281e-01+j2.41441432596837313174e-01
  -2.29164596025233674448e-01+j2.25490624451422816410e-01
  -1.86103765440012114407e-01+j2.04047658935305853412e-01
  -1.43369661977574419653e-01+j1.76606114606031594505e-01
  -1.01980158293203573838e-01+j1.42794011998514158712e-01
  -6.31266841495716768407e-02+j1.02444006571459314547e-01
  -2.81281999999200837959e-02+j5.56645479152599390038e-02
  +1.64558769178168771107e-03+j2.90007457079064639993e-03
  +2.48791941480284682642e-02-j5.50343996020860662388e-02
  +4.04341446743174334766e-02-j1.16958401900784741967e-01
  +4.74715848538973389514e-02-j1.81379734872817915958e-01
  +4.55522773017695975506e-02-j2.46596117861769575930e-01
  +3.46930243852938899329e-02-j3.10832321891034601968e-01
  +1.53666712357211666939e-02-j3.72390617616419339342e-01
  -1.15545597422662023324e-02-j4.29788421460491842918e-01
  -4.48999139018328233264e-02-j4.81860612017926737138e-01
  -8.33241901974231397032e-02-j5.27813605281190922902e-01
  -1.25432323150912822252e-01-j5.67230095319922300590e-01
  -1.69885993824340553182e-01-j6.00033277512474150228e-01
  -2.15481497677563915705e-01-j6.26424842184701513581e-01
  -2.61196085898836971584e-01-j6.46811745070828170157e-01
  -3.06206060133685453728e-01-j6.61734059868942625648e-01
  -3.49883210302482317022e-01-j6.71801991996455072353e-01
  -3.91777030356125988142e-01-j6.77645961427223553208e-01
  -4.31589354833925298305e-01-j6.79880439479582432405e-01
  -4.69146497692551123215e-01-j6.79080203989964936717e-01
  -5.04372287642059990986e-01-j6.75766712150528858771e-01
  -5.37263942758906987152e-01-j6.70402071572070767935e-01
  -5.67871646546008856937e-01-j6.63388306973274555212e-01
  -5.96281973804897225122e-01-j6.55070032538855762105e-01
